---
layout: single
excerpt: В случае кратковременной потери электричества --- что совсем нередко случается
  за городом --- и внезапного прекращения подачи питания на *RaspberryPi*, которая
  является центром моего (полу-)умного дома, возможны всякие нехорошие последствия
  вплоть до повреждения накопленной базы данных. Чтобы не страдать сильно от подобных
  событий следует, во-первых, настроить регулярный бэкап, а, во-вторых, придумать
  как обеспечить бесперебойное питание *RaspberryPi*.
title: Источник бесперебойного питания для *RaspberryPi*
header:
  teaser: "/assets/posts/smart_home/ups.png"
categories:
- Умный дом
tags:
- умный дом
- domoticz
- ups-18650
- rtc
- max17040g
- ds1307z+
comments: true
share: true
related: true
toc: true
toc_sticky: true
math: true
date: 2019-09-15 20:22 +0300
---
## Введение

В случае кратковременной потери электричества --- что совсем нередко случается за городом --- и внезапного прекращения подачи питания на *RaspberryPi*, которая является центром моего (полу-)умного дома, возможны всякие нехорошие последствия, вплоть до повреждения накопленной базы данных. Чтобы не страдать сильно от подобных событий, следует, во-первых, настроить регулярный бэкап, а, во-вторых, придумать, как обеспечить бесперебойное питание *RaspberryPi*.

Для <<во-вторых>> я нашел на *AliExpress* плату китайского инженера-энтузиаста *UPS-18650*, которая так называется, потому что работает с двумя стандартными литиевыми аккумуляторами 18650. Для измерения заряда и напряжения на аккумуляторах в ней используется чип *MAX17040G*, а также приятным бонусом идет модуль часов реального времени *DS1307z+*, и все это умеет общаться по интерфейсу *I2C*. Сразу в комплекте к *UPS* можно там же заказать достаточно мощный вентилятор для активного охлаждения процессора --- советую, в сборе выглядит все довольно аккуратно и компактно.

{% include figure image_path="/assets/posts/ups18650/ups.jpg" caption="RaspberryPi и UPS-18650 c вентилятором" %}

## Установка

В комплекте с *UPS-18650* идет инструкция, как ни странно, только на китайском языке, поэтому следует пояснить, <<что есть что>> на плате.

{% include figure image_path="/assets/posts/ups18650/ups_description.jpg" caption="UPS-18650" %}

*RaspberryPi* сажается на плату сверху --- это очевидный плюс, т.к. остается легкий доступ к пинам *Pi*. Перед установкой надо докупить два литиевых аккумулятора 18650. У меня были емкостью 3400 *mAh* и с защитой. Однако с защитой их можно только силой впихнуть в штатные места, поэтому пришлось ее оторвать и выбросить. Это не страшно, т.к. на плате присутствует микросхема защиты *XB8089D*, и я даже не уверен, будет ли вообще *UPS* нормально работать, если воткнуть в нее аккумуляторы с защитой.

Вторым шагом надо аккуратно срезать ножки сетевого порта на *RaspberryPi*, т.к. они опасно близко нависают над плюсовым контактом аккумулятора, что может привести к короткому замыканию.

{% include figure image_path="/assets/posts/ups18650/rj45.jpg" caption="Ножки сетевого порта, которые надо срезать" %}

Дополнительно следует замкнуть (запаять) два контакта на обратной стороне платы, чтобы можно было обнаружить потерю внешнего питания: при наличии питания, на `GPIO4` *RaspberryPi* будет подаваться напряжение 3.3*V*.

{% include figure image_path="/assets/posts/ups18650/ups_vin.jpg" caption="Контакты GPIO4 и Vin" %}

Далее можно сажать на плату *Pi*, а сверху вентилятор, весь этот бутерброд должен уже работать: *UPS* подавать питание на *RaspberryPi*, а вентилятор безостановочно вращаться.

## Настройка

**Отказ от ответственности:** не повторяйте действия, которые написаны ниже (и выше тоже), если ясно не представляете, к какому результату они приведут. Все, что вы делаете --- вы делаете на свой страх и риск, я подразумеваю, что читатель умеет работать с терминальным доступом и знает основные команды linux.
{: .notice--danger}

После того, как аппаратная часть готова, можно приступать к программной настройке. Для начала следует включить *I2C* интерфейс на *RaspberryPi*: `sudo raspi-config`, в появившемся меню выбираем `Interfacing Options` и далее настраиваем автоматическую загрузку драйвера *I2C* шины: `Enable/Disable automatic loading of I2C kernel module`.

Далее устанавливаем утилиты для работы с *I2C* и перезагружаем *Pi*:
```bash
$ sudo apt-get update
$ sudo apt-get install i2c-tools python-smbus
$ sudo reboot now
```

После перезагрузки проверяем, какой порт шины *I2C* используется:
```bash
$ sudo i2cdetect -l
> i2c-1   i2c         bcm2835 I2C adapter               I2C adapter
```

Первое значение `i2c-1` означает, что используется порт *I2C1* (на ранних моделях *RaspberryPi* может быть `i2c-0`). Далее просканируем, какие устройства подключены к шине на данном порту (параметр `-y` отключает интерактивный режим работы утилиты):
```bash
$ sudo i2cdetect -y 1
>      0  1  2  3  4  5  6  7  8  9  a  b  c  d  e  f
> 00:          -- -- -- -- -- -- -- -- -- -- -- -- -- 
> 10: -- -- -- -- -- -- -- -- -- -- -- -- -- -- -- -- 
> 20: -- -- -- -- -- -- -- -- -- -- -- -- -- -- -- -- 
> 30: -- -- -- -- -- -- 36 -- -- -- -- -- -- -- -- -- 
> 40: -- -- -- -- -- -- -- -- -- -- -- -- -- -- -- -- 
> 50: -- -- -- -- -- -- -- -- -- -- -- -- -- -- -- -- 
> 60: -- -- -- -- -- -- -- -- 68 -- -- -- -- -- -- -- 
> 70: -- -- -- -- -- -- -- --  
```

Как видно из результатов команды, сканируется диапазон адресов `0x03-0x77`. Прочерк `--` значит, что по данному адресу устройств не найдено. `0x68` --- это стандартный адрес часов реального времени *DS1307*, а по адресу `0x36` находится чип управления аккумулятором *MAX17040G*.

### Подключение DS1307z+

Для начала подключим модуль реального времени, чтобы больше не иметь проблем с откатом в 1970-й год после каждой перезагрузки *Pi*: добавим *DS1307* в дерево подключенных устройств, дописав в конец файла `/boot/config.txt` строку `dtoverlay=i2c-rtc,ds2307`. Далее удалим `fake-hwclock` за дальнейшей ненадобностью:
```bash
$ sudo apt-get -y remove fake-hwclock
$ sudo update-rc.d -f fake-hwclock remove
$ sudo rm /etc/cron.hourly/fake-hwclock
$ sudo rm /etc/init.d/fake-hwclock
```
И включим скрипт `/lib/udev/hwclock-set`, закомментировав в файле первую директиву `if`:
```bash
#!/bin/sh
# Reset the System Clock to UTC if the hardware clock from which it
# was copied by the kernel was in localtime.

dev=$1

#if [ -e /run/systemd/system ] ; then
#    exit 0
#fi

...
```

Осталось только записать в чип текущее время, и на этом настройка закончена:
```bash
$ sudo hwclock -w
```

Если теперь проверить подключенные к *I2C* устройства той же командой, что и ранее, то по адресу `0х68` мы увидим символы `UU`, что означает --- устройство работает и находится в постоянном режиме общения с шиной:
```bash
$ sudo i2cdetect -y 1
>      0  1  2  3  4  5  6  7  8  9  a  b  c  d  e  f
> 00:          -- -- -- -- -- -- -- -- -- -- -- -- -- 
> 10: -- -- -- -- -- -- -- -- -- -- -- -- -- -- -- -- 
> 20: -- -- -- -- -- -- -- -- -- -- -- -- -- -- -- -- 
> 30: -- -- -- -- -- -- 36 -- -- -- -- -- -- -- -- -- 
> 40: -- -- -- -- -- -- -- -- -- -- -- -- -- -- -- -- 
> 50: -- -- -- -- -- -- -- -- -- -- -- -- -- -- -- -- 
> 60: -- -- -- -- -- -- -- -- UU -- -- -- -- -- -- -- 
> 70: -- -- -- -- -- -- -- --  
```

### Подключение MAX17040G

В *Domoticz* к одному и тому же результату можно подойти десятками разных способов, в этом и есть вся прелесть этой платформы. Чтобы вывести результаты измерения заряда аккумуляторов, я решил не изобретать велосипед, а просто немного модифицировал python-скрипт от разработчика платы, который для удобства сохранил в стандартой папке для python-скриптов *Domoticz* `domoticz/scripts/python/ups18650.py`:
```python
#!/usr/bin/env python
import struct
import smbus
import json


def readVoltage(bus):
  "This function returns as float the voltage from the Raspi UPS Hat via the provided SMBus object"
  read = bus.read_word_data(address, 2)
  swapped = struct.unpack("<H", struct.pack(">H", read))[0]
  voltage = swapped*1.25/1000/16
  return voltage


def readCapacity(bus):
  "This function returns as a float the remaining capacity of the battery connected to the Raspi UPS Hat via the provided SMBus object"
  read = bus.read_word_data(address, 4)
  swapped = struct.unpack("<H", struct.pack(">H", read))[0]
  capacity = swapped/256.0
  return capacity


address = 0x36        # MAX17040G
bus = smbus.SMBus(1)  # 0 = /dev/i2c-0 (port I2C0), 1 = /dev/i2c-1 (port I2C1)
payload = {
  "voltage": readVoltage(bus), 
  "charge": readCapacity(bus)
}

print(json.dumps(payload))
```

Все, что он делает, это обращается по *I2C* к чипу *MAX17040G*, считывает информацию из регистров памяти по адресам `0x02-0x03` и `0x04-0x05` и переводит ее в понятные величины (если интересно, что это за магические цифры 1.25, 16 и 256, то об этом будет [врезка ниже](#врезка-магические-цифры)). Если его запустить, на выходе получим *JSON* с данными заряда аккумуляторов в процентах и их напряжением примерно следующего содержания: `{"charge": 92.75390625, "voltage": 4.12875}`.

Далее в *Domoticz* добавляем виртуальное устройство на вкладке `Setup > Hardware`, находим его в списке устройств и добавляем к нему два сенсора `Create virtual sensors`: один типа `Voltage` --- для данных о напряжении, а второй типа `Percentage` --- для уровня заряда аккумуляторов.

{% include figure image_path="/assets/posts/ups18650/hardware.png" caption="Виртуальное устройство \"UPS18650 + Fan Hat\" и его сенсоры и выключатели" %}

Следующим шагом надо сделать так, чтобы сенсоры фиксировали и записывали данные о состоянии аккумуляторов. Для этого необходимо, чтобы *Domoticz* регулярно запускал наш скрипт `ups18650.py` и передавал данные на сенсоры. Выбираем в меню `Setup > More Options > Events` и добавляем скрипт *dzVents*, который будет делать все перечисленное с периодичностью раз в минуту.

```lua
return {
  on = {
    timer = {
      'every minute',
    },
  },
  execute = function(domoticz, timer)
    local upsVoltageSensorIdx = 10  -- change to your voltage sensor's idx
    local upsChargeSensorIdx = 11   -- change to your charge sensor's idx

    local f = assert(io.popen('/path/to/domoticz/scripts/python/ups18650.py', 'r'))
    local data = assert(f:read('*a'))
    f:close()
      
    domoticz.log(data)
    
    local ups = domoticz.utils.fromJSON(data)
    domoticz.devices(upsVoltageSensorIdx).updateVoltage(domoticz.utils.round(ups.voltage, 2))
    domoticz.devices(upsChargeSensorIdx).updatePercentage(domoticz.utils.round(ups.charge, 2))
  end
}
```



#### Врезка: магические цифры

<font size="-1">
<div style="background-color:#eee;padding:10px;border-radius:4px;" markdown="1">

Чтобы понять, откуда берется информация о напряжении и уровне зарядов аккумулятора, сначала посмотрим, какая конкретно информация хранится в регистрах памяти чипа *MAX17040G*. Для этого воспользуемся утилитой `i2cdump` и выгрузим всю информацию в регистрах устройства по уже известному адресу `0x36`:

```bash
$ i2cdump -y 1 0x36
> No size specified (using byte-data access)
>      0  1  2  3  4  5  6  7  8  9  a  b  c  d  e  f    0123456789abcdef
> 00: ff ff ce 70 5c c1 00 00 00 02 ff ff 97 00 ff ff    ..?p\?...?..?...
> 10: ff ff ff ff 00 00 ff ff ff ff ff ff ff ff ff ff    ................
> 20: ff ff ff ff ff ff ff ff ff ff ff ff ff ff ff ff    ................
> 30: ff ff ff ff ff ff ff ff ff ff ff ff ff ff 00 00    ................
> 40: ff ff ff ff ff ff ff ff ff ff ff ff ff ff ff ff    ................
> 50: ff ff ff ff ff ff ff ff ff ff ff ff ff ff ff ff    ................
> 60: ff ff ff ff ff ff ff ff ff ff ff ff ff ff ff ff    ................
> 70: ff ff ff ff ff ff ff ff ff ff ff ff ff ff ff ff    ................
> 80: ff ff ff ff ff ff ff ff ff ff ff ff ff ff ff ff    ................
> 90: ff ff ff ff ff ff ff ff ff ff ff ff ff ff ff ff    ................
> a0: ff ff ff ff ff ff ff ff ff ff ff ff ff ff ff ff    ................
> b0: ff ff ff ff ff ff ff ff ff ff ff ff ff ff ff ff    ................
> c0: ff ff ff ff ff ff ff ff ff ff ff ff ff ff ff ff    ................
> d0: ff ff ff ff ff ff ff ff ff ff ff ff ff ff ff ff    ................
> e0: ff ff ff ff ff ff ff ff ff ff ff ff ff ff ff ff    ................
> f0: ff ff ff ff ff ff ff ff ff ff ff ff ff ff ff ff    ................
```

Для расшифровки значений этих цифр обратимся к руководству микросхемы *MAX17040G*:

{% include figure image_path="/assets/posts/ups18650/max_reg.png" caption="Регистры MAX17040G" %}

Нас интересуют регистры *VCELL*, по адресу `0x02-0x03` и *SOC* --- `0x04-0x05`.

{% include figure image_path="/assets/posts/ups18650/vcell_soc.png" caption="Регистры VCELL и SOC" %}

Из 16 доступных бит *VCELL* использует только 12, последние 4 бита --- всегда нули. Единица измерения --- 1.25*mV*, поэтому, чтобы получить измерение в Вольтах для нашего примера, надо первые 12 бит начиная с адреса `0x02` умножить на 1.25 и разделить на 1000: 

$$
\mathtt{\frac{0xCE7 \cdot 1.25}{1000} = \frac{3033 \cdot 1.25}{1000}=4.12875~V}.
$$

Или, если взять все 16 бит (включая четыре бита нулей справа), как в python-скрипте выше, то необходимо дополнительно еще разделить на $2^{4}=16$, чтобы прийти к тому же результату $\mathtt{0xCE70:2^{4}=0xCE7}$.

В регистре *SOC* в первых 8 битах (по адресу `0x04`) содержится информация о проценте заряда в единицах 1%, а во вторых 8 битах (`0x05`) --- дополнительно доля заряда в единицах $\frac{1\%}{2^{8}}=\frac{1\%}{256}$, что довольно удобно, т.к. можно посчитать процент заряда, просто разделив 16-битное число по адресу `0x04-0x05` на 256:

$$
\mathtt{\frac{0x5CC1}{256} = \frac{23745}{256} = 92.75390625\%}.
$$

</div>
</font>

### Определение источника питания *RaspberryPi*

В принципе, определить отстутсвие внешнего питания на *Pi* можно и по косвенным признакам, например, отсутсвие сигнала от других устройств, но надежнее получить информацию прямо от *UPS*. К настройке можно переходить, если в соответсвии с инструкцией [выше](#установка) предварительно замкнуть `GPIO4 (PIN-7)` на *Pi* и `Vin` на *UPS-18650*.

Способов того, как настроить работу *Domoticz* с *GPIO*, великое множество, самые каноничные --- описаны в *[Wiki](https://www.domoticz.com/wiki/GPIO)*. Но поскольку у меня уже установлен *Node-RED*, то я всю логику взаимодействия с *GPIO* решил собрать в одном месте.

{% include figure image_path="/assets/posts/ups18650/nodered.png" caption=" Управление GPIO в Node-RED" %}

Верхний процесс на картинке выше мониторит состояние `GPIO4`, передает его функции `Payload`, которая формирует *MQTT*-телеграмму для *Domoticz* и публикует ее в топике `domoticz/in`:

```js
// Payload Function
if (msg.payload === 1) {
  msg.payload = {
    idx: 10,    // Change to idx of your Alarm sensor
    nvalue: 1,  // Green Level
    svalue: "Power On"
  } 
} else if (msg.payload === 0) {
  msg.payload = {
    idx: 10,    // Change to idx of your Alarm sensor
    nvalue: 4,  // Red level
    svalue: "Power Off"
  }
}
return msg;
```

В *Domoticz* надо добавить соответсвующий сенсор, лучше всего подходит сенсор типа `Alarm`, который будет менять цвет, в зависимости от состояния питания, и отображать полученное значение `svalue`. 

### Подключение вентилятора

Вентилятор управлется подачей сигнала на `GPIO22 (PIN-15)`. В *Node-RED* это настраивается аналогично тому, как мы определяли источник питания, только процесс идет в другую сторону. Сначала в *Domoticz* надо добавить выключатель, который будет управлять вентилятором. Далее в *Node-RED* подписываемся на топик `domoticz/out`, конвертируем полученную телеграмму в *JSON* и передаем функции `Payload`, которая проверяет, что телеграмма получена от выключателя вентилятора и передает состояние выключателя 1 или 0, содержащееся в `nvalue`, на `GPIO22`:

```js
// Payload Function
if (msg.payload.idx === 10) {
  // Change to idx of your Fan Switch
  msg.payload = msg.payload.nvalue;
  return msg;
}
```

Автоматизировать работу вентилятора, чтобы он не работал постоянно, можно простейшим скриптом, который будет проверять температуру процессора и запускать вентилятор, когда она поднимется выше определенного порога. Набор сенсоров *RaspberryPi*, включая температуру процессора, можно добавить в *Domoticz*, подключив доступное <<из коробки>> устройство `Motherboard sensors`.

Считается, что рабочий диапазон процессора *Broadcom* --- до 60°C, опасный --- выше 80°C. Определим комфортный диапазон температуры от 40 до 45°C:

```lua
return {
  on = {
    devices = {
      11  -- Change to idx of yourt Pi internal temperature sensor
    }
  },
  execute = function(domoticz, broadcom)
    local fan = domoticz.devices(10)  -- Change to idx of your Fan Switch
    if broadcom.temperature > 45 then
        fan.switchOn().checkFirst()
    elseif broadcom.temperature < 40 then
        fan.switchOff().checkFirst()
    end
  end
}
```

## Ссылки

* [Domoticz](https://www.domoticz.com/)
* [Node-RED](https://nodered.org/)
* [UPS-18650 на AliExpress](https://ru.aliexpress.com/item/32955634965.html?spm=a2g0s.9042311.0.0.274233edj0ZfCg)
* [Документация и скрипты для UPS-18650 от разработчика](https://github.com/linshuqin329/UPS-18650)
* [Datasheet MAX17040G](https://datasheets.maximintegrated.com/en/ds/MAX17040-MAX17041.pdf)
* [Datasheet DS1307](https://datasheets.maximintegrated.com/en/ds/DS1307.pdf)




